HEADER
"PSFversion" "1.00"
"simulator" "spectre"
"version" "5.0.33.071304"
"date" "2:30:26 PM, Thur Sep 27, 2007"
"design" "// Generated for: spectre"
"analysis type" "stb"
"analysis name" "stb"
"analysis description" "Stability Analysis `stb': freq = 10 Hz, vdc = (-500e-03 -> 500e-03)"
"tolerance.relative" 0.00100000
"operating point producer" "stb"
"probe" "DACTOP_0.DIV2_0.I27.vinj"
"gainMarginInfo" "Gain margin is not defined for non-frequency sweep"
"phaseMarginInfo" "Phase margin is not defined for non-frequency sweep"
TYPE
"sweep" FLOAT DOUBLE PROP(
"key" "sweep"
)
"LOOPGAIN" COMPLEX DOUBLE PROP(
"key" "gain"
)
SWEEP
"vdc" "sweep" PROP(
"sweep_direction" 0
"plot" 0
"grid" 1
)
TRACE
"loopGain" "LOOPGAIN"
VALUE
"vdc" -0.500000
"loopGain" (0.000291959 -2.81639e-09)
"vdc" -0.475000
"loopGain" (0.000440654 -2.82067e-09)
"vdc" -0.450000
"loopGain" (0.000669285 -2.82688e-09)
"vdc" -0.425000
"loopGain" (0.00102320 -2.83603e-09)
"vdc" -0.400000
"loopGain" (0.00157540 -2.84968e-09)
"vdc" -0.375000
"loopGain" (0.00244518 -2.87042e-09)
"vdc" -0.350000
"loopGain" (0.00383121 -2.90246e-09)
"vdc" -0.325000
"loopGain" (0.00607232 -2.95295e-09)
"vdc" -0.300000
"loopGain" (0.00976292 -3.03438e-09)
"vdc" -0.275000
"loopGain" (0.0159777 -3.16923e-09)
"vdc" -0.250000
"loopGain" (0.0267054 -3.39898e-09)
"vdc" -0.225000
"loopGain" (0.0456092 -3.79988e-09)
"vdc" -0.200000
"loopGain" (0.0790400 -4.50386e-09)
"vdc" -0.175000
"loopGain" (0.136672 -5.71111e-09)
"vdc" -0.150000
"loopGain" (0.230703 -7.67094e-09)
"vdc" -0.125000
"loopGain" (0.372794 -1.06115e-08)
"vdc" -0.1000000
"loopGain" (0.569238 -1.46269e-08)
"vdc" -0.0750000
"loopGain" (0.817106 -1.95809e-08)
"vdc" -0.0500000
"loopGain" (1.10425 -2.50797e-08)
"vdc" -0.0250000
"loopGain" (1.41363 -3.04717e-08)
"vdc" 0.00000
"loopGain" (1.73120 -3.46169e-08)
"vdc" 0.0250000
"loopGain" (2.03536 -3.36898e-08)
"vdc" 0.0500000
"loopGain" (2.30772 1.51559e-08)
"vdc" 0.0750000
"loopGain" (2.54139 -1.03739e-07)
"vdc" 0.100000
"loopGain" (2.72922 -8.55370e-08)
"vdc" 0.125000
"loopGain" (2.86905 -8.37388e-08)
"vdc" 0.150000
"loopGain" (2.96525 -8.40656e-08)
"vdc" 0.175000
"loopGain" (3.02653 -8.46436e-08)
"vdc" 0.200000
"loopGain" (3.06312 -8.50932e-08)
"vdc" 0.225000
"loopGain" (3.08399 -8.53822e-08)
"vdc" 0.250000
"loopGain" (3.09567 -8.55557e-08)
"vdc" 0.275000
"loopGain" (3.10227 -8.56589e-08)
"vdc" 0.300000
"loopGain" (3.10612 -8.57218e-08)
"vdc" 0.325000
"loopGain" (3.10844 -8.57617e-08)
"vdc" 0.350000
"loopGain" (3.10989 -8.57880e-08)
"vdc" 0.375000
"loopGain" (3.11084 -8.58061e-08)
"vdc" 0.400000
"loopGain" (3.11147 -8.58190e-08)
"vdc" 0.425000
"loopGain" (3.11191 -8.58287e-08)
"vdc" 0.450000
"loopGain" (3.11222 -8.58361e-08)
"vdc" 0.475000
"loopGain" (3.11246 -8.58420e-08)
"vdc" 0.500000
"loopGain" (3.11264 -8.58469e-08)
END
