HEADER
"PSFversion" "1.00"
"simulator" "spectre"
"version" "4.4.3.100.35"
"date" "5:24:46 PM, Thur Jan 11, 2001"
"design" "* # FILE NAME: /PROJ1/SID/USERS/HENJO/CADENCE/SIM/VCO_BIPOLAR_TESTBENCH/"
"analysis type" "fd.pss"
"analysis name" "pss0"
"analysis description" "Periodic Steady-State Analysis `pss0': fund = 2.34268 GHz"
"tolerance.relative" 1.00000e-05
"fundamental" 2.34268e+09
TYPE
"sweep" FLOAT DOUBLE PROP(
"key" "sweep"
)
"V" COMPLEX DOUBLE PROP(
"units" "V"
"key" "node"
"tolerance" 3.00000e-08
)
"I" COMPLEX DOUBLE PROP(
"units" "A"
"key" "branch"
"tolerance" 1.00000e-13
)
"U" COMPLEX DOUBLE PROP(
"key" "node"
"tolerance" 1.00000e-06
)
"MMF" COMPLEX DOUBLE PROP(
"units" "A*turn"
"key" "node"
"tolerance" 1.00000e-12
)
"Wb" COMPLEX DOUBLE PROP(
"units" "Wb"
"key" "node"
"tolerance" 1.00000e-09
)
"Temp" COMPLEX DOUBLE PROP(
"units" "C"
"key" "node"
"tolerance" 0.000100000
)
"Pwr" COMPLEX DOUBLE PROP(
"units" "W"
"key" "node"
"tolerance" 1.00000e-09
)
SWEEP
"freq" "sweep" PROP(
"sweep_direction" 0
"units" "Hz"
"plot" 0
"grid" 1
)
TRACE
"1" "V"
"2" "V"
"net15" "V"
"net21" "V"
"net23" "V"
"v2:p" "I"
"v3:p" "I"
"v9:p" "I"
"vdd!" "V"
"xi1.net50" "V"
"xi1.net86" "V"
"xi1.net116" "V"
"xi1.net151" "V"
"xi1.net157" "V"
"xi1.net158" "V"
"xi1.net169" "V"
"xi1.net174" "V"
"xi1.net176" "V"
"xi1.net184" "V"
"xi1.net199" "V"
"xi1.net207" "V"
"xi1.net211" "V"
"xi1.net215" "V"
"xi1.xi93.xl0.li0:1" "I"
"xi1.xi93.xl0.li1:1" "I"
"xi1.xi93.xl0.net4" "V"
"xi1.xi93.xl0.net6" "V"
"xi1.xi93.xl0.net9" "V"
"xi1.xi93.xl0.net10" "V"
VALUE
"freq" 0.00000
"1" (2.99335 0.00000)
"2" (2.99335 0.00000)
"net15" (3.00000 0.00000)
"net21" (0.00000 0.00000)
"net23" (1.99787 0.00000)
"v2:p" (-0.00492531 0.00000)
"v3:p" (4.05760e-11 0.00000)
"v9:p" (-0.0121552 0.00000)
"vdd!" (5.00000 0.00000)
"xi1.net50" (6.08768e-05 0.00000)
"xi1.net86" (2.20425 0.00000)
"xi1.net116" (1.14301 0.00000)
"xi1.net151" (4.83078 0.00000)
"xi1.net157" (4.82609 0.00000)
"xi1.net158" (3.76761 0.00000)
"xi1.net169" (1.93535 0.00000)
"xi1.net174" (0.252862 0.00000)
"xi1.net176" (0.252069 0.00000)
"xi1.net184" (0.253259 0.00000)
"xi1.net199" (1.14441 0.00000)
"xi1.net207" (1.93535 0.00000)
"xi1.net211" (0.921896 0.00000)
"xi1.net215" (1.84379 0.00000)
"xi1.xi93.xl0.li0:1" (0.00246266 0.00000)
"xi1.xi93.xl0.li1:1" (0.00246265 0.00000)
"xi1.xi93.xl0.net4" (1.01112e-07 0.00000)
"xi1.xi93.xl0.net6" (-2.45064e-07 0.00000)
"xi1.xi93.xl0.net9" (3.00000 0.00000)
"xi1.xi93.xl0.net10" (3.00000 0.00000)
"freq" 2.34268e+09
"1" (-0.312438 0.0947301)
"2" (0.312982 -0.0944507)
"net15" (-6.44341e-11 -1.49878e-10)
"net21" (0.00000 -0.00000)
"net23" (2.89959e-06 -6.91391e-06)
"v2:p" (1.96968e-05 -2.73617e-05)
"v3:p" (8.77387e-09 4.43866e-09)
"v9:p" (-6.11236e-09 7.90653e-08)
"vdd!" (-1.07389e-10 -2.49795e-10)
"xi1.net50" (0.000271963 0.000139705)
"xi1.net86" (6.75492e-06 3.88650e-06)
"xi1.net116" (0.000142962 7.16697e-05)
"xi1.net151" (3.30514e-07 1.31988e-07)
"xi1.net157" (2.87620e-07 2.29192e-07)
"xi1.net158" (5.98571e-07 2.94573e-07)
"xi1.net169" (-0.101235 0.0205295)
"xi1.net174" (-5.73017e-07 -2.10934e-07)
"xi1.net176" (-8.35543e-07 1.51213e-06)
"xi1.net184" (-6.15029e-07 -2.20584e-07)
"xi1.net199" (-6.95562e-07 -3.17773e-07)
"xi1.net207" (0.101518 -0.0203849)
"xi1.net211" (6.42684e-07 1.02746e-06)
"xi1.net215" (1.31492e-06 2.00886e-06)
"xi1.xi93.xl0.li0:1" (0.00257904 0.0178412)
"xi1.xi93.xl0.li1:1" (-0.00259874 -0.0178138)
"xi1.xi93.xl0.net4" (0.319756 -0.0392192)
"xi1.xi93.xl0.net6" (-0.318538 0.0646910)
"xi1.xi93.xl0.net9" (-0.319459 0.0466042)
"xi1.xi93.xl0.net10" (0.319949 -0.0462509)
END
